(1764416369.673406) vcan0 200#0188200000000000
(1764416370.229833) vcan0 100#2A00000000000000
(1764416370.675663) vcan0 200#0189200000000000
(1764416371.676364) vcan0 200#018E200000000000
(1764416372.231032) vcan0 100#3700000000000000
(1764416372.676653) vcan0 200#0188200000000000
(1764416373.676817) vcan0 200#018D200000000000
(1764416374.231587) vcan0 100#5100000000000000
(1764416374.677081) vcan0 200#018C200000000000
(1764416375.677588) vcan0 200#018F200000000000
(1764416376.231743) vcan0 100#4300000000000000
(1764416376.678036) vcan0 200#0189200000000000
(1764416377.678517) vcan0 200#018C200000000000
(1764416378.232082) vcan0 100#2300000000000000
(1764416378.679027) vcan0 200#018A200000000000
(1764416379.679514) vcan0 200#018A200000000000
(1764416380.233320) vcan0 100#5C00000000000000
(1764416380.679724) vcan0 200#018D200000000000
(1764416381.682258) vcan0 200#018E200000000000
(1764416382.233470) vcan0 100#1B00000000000000
(1764416382.682578) vcan0 200#018A200000000000
(1764416383.682909) vcan0 200#018F200000000000
(1764416384.233790) vcan0 100#2800000000000000
(1764416384.683244) vcan0 200#0184200000000000
(1764416385.683432) vcan0 200#0183200000000000
(1764416386.234063) vcan0 100#5300000000000000
(1764416386.683650) vcan0 200#0189200000000000
(1764416387.683801) vcan0 200#018A200000000000
(1764416388.234815) vcan0 100#3E00000000000000
(1764416388.683995) vcan0 200#0188200000000000
(1764416389.684207) vcan0 200#017D200000000000
(1764416390.235110) vcan0 100#1C00000000000000
(1764416390.684652) vcan0 200#0184200000000000
(1764416391.685939) vcan0 200#0187200000000000
(1764416392.235705) vcan0 100#3D00000000000000
(1764416392.686329) vcan0 200#018B200000000000
(1764416393.686755) vcan0 200#0183200000000000
(1764416394.235884) vcan0 100#5100000000000000
(1764416394.687688) vcan0 200#0181200000000000
(1764416395.688553) vcan0 200#018C200000000000
(1764416396.236061) vcan0 100#1500000000000000
(1764416396.689859) vcan0 200#0186200000000000
